K1,,1997
12,12A,0D
1,Spannung        VL-L1,,5,V,1,0,0.000000e+000,-99999,99998,3.800000e+05,1.000000e+02,P
2,Spannung        VL-L2,,6,V,1,0,0.000000e+000,-99999,99998,3.800000e+05,1.000000e+02,P
3,Spannung        VL-L3,,7,V,1,0,0.000000e+000,-99999,99998,3.800000e+05,1.000000e+02,P
4,Strom           IL-L1,,1,A,1,0,0.000000e+000,-99999,99998,1.000000e+03,1.000000e+00,P
5,Strom           IL-L2,,2,A,1,0,0.000000e+000,-99999,99998,1.000000e+03,1.000000e+00,P
6,Strom           IL-L3,,3,A,1,0,0.000000e+000,-99999,99998,1.000000e+03,1.000000e+00,P
7,Spannung        VR-L1,,5,V,1,0,0.000000e+000,-99999,99998,3.800000e+05,1.000000e+02,P
8,Spannung        VR-L2,,6,V,1,0,0.000000e+000,-99999,99998,3.800000e+05,1.000000e+02,P
9,Spannung        VR-L3,,7,V,1,0,0.000000e+000,-99999,99998,3.800000e+05,1.000000e+02,P
10,Strom           IR-L1,,1,A,1,0,0.000000e+000,-99999,99998,1.000000e+03,1.000000e+00,P
11,Strom           IR-L2,,2,A,1,0,0.000000e+000,-99999,99998,1.000000e+03,1.000000e+00,P
12,Strom           IR-L3,,3,A,1,0,0.000000e+000,-99999,99998,1.000000e+03,1.000000e+00,P
50
1
10000.0,2000
01/01/2026,12:00:00.000000
01/01/2026,12:00:00.000000
ASCII
1
1,0,36.566050,-86727.338471,86692.594522,-342.639718,-642.667137,982.326241,-3393.136670,-83115.114579,86632.549335,348.889441,613.599968,-959.395273
2,100,3253.943674,-88364.469429,84833.007758,-315.110426,-666.167875,977.351828,-269.275857,-85057.229296,85106.443495,317.909741,633.400252,-952.236201
3,200,6294.392801,-89609.125135,83290.107932,-285.246480,-687.688861,970.697411,2615.903066,-86376.167590,83446.622737,290.263604,657.778307,-948.889632
4,300,9308.466061,-90818.083148,81606.114605,-249.769735,-711.969104,964.684922,5861.341144,-87824.003363,81899.639770,261.645933,677.189010,-939.812334
5,400,12541.247040,-92051.046214,79709.092923,-221.971497,-739.040189,953.004789,8973.593521,-88956.555753,79976.085201,234.793481,697.310936,-932.043810
6,500,15540.331408,-93313.792556,77599.530234,-191.060414,-753.980122,941.939228,11825.670293,-90086.363783,78084.933262,199.125049,721.156617,-920.428355
7,600,18843.545495,-94443.628133,75677.322082,-159.988391,-777.189017,935.294917,15120.348411,-91387.556418,76363.620423,172.111508,740.648716,-909.997541
8,700,21732.612594,-95277.327891,73591.165174,-128.834398,-792.927617,925.343863,17822.261835,-92453.426474,74482.218381,142.361543,761.821786,-900.452677
9,800,24817.589378,-96358.512706,71511.145066,-96.664920,-811.379974,909.982976,20883.692852,-93352.849140,72379.304852,105.736555,778.579613,-892.378136
10,900,27942.963892,-97063.900078,69266.015907,-60.627666,-833.422107,896.202858,23962.873142,-94194.802595,69992.968737,79.508874,799.463905,-878.431852
11,1000,31158.697150,-97863.529875,66851.591508,-33.096780,-846.542654,883.922371,27054.062560,-94894.648956,68249.313482,54.551014,810.695074,-866.443670
12,1100,33776.139297,-98345.643266,64681.245448,-2.140014,-868.441916,870.944051,30004.916693,-95822.959333,65752.321447,21.838849,829.020589,-849.402825
13,1200,36798.781574,-99028.052074,62015.840282,27.513857,-877.156785,847.659881,32837.902740,-96324.747270,63418.881048,-10.382244,844.792244,-835.528238
14,1300,39792.860198,-99248.086059,59687.666009,59.819511,-895.281241,835.992104,35848.815723,-96642.146080,61132.774489,-40.260397,860.900748,-815.769243
15,1400,42498.067992,-99621.426566,57085.359066,91.266721,-907.045383,815.027015,38444.979764,-97471.989164,58797.500521,-71.446076,872.521932,-803.313080
16,1500,45425.292606,-99758.382022,54490.734967,121.755405,-920.865188,799.626130,41409.420109,-97521.860705,56146.454653,-98.453042,887.519744,-788.544551
17,1600,48256.837038,-99969.958859,51837.395265,154.964430,-932.022849,776.785620,44285.673813,-97866.190791,53573.295416,-135.530347,896.434352,-765.990071
18,1700,50979.896162,-100169.375635,49052.014816,184.166508,-938.000505,762.563318,46863.682261,-98114.392521,51297.667067,-161.832625,910.193087,-747.748732
19,1800,53526.234779,-99988.948352,46296.586442,208.786528,-953.063981,740.319580,49579.743066,-97920.270118,48341.878629,-188.932783,920.879580,-727.452584
20,1900,56387.730743,-99835.347456,43639.303340,244.942732,-963.138175,716.376679,52095.643716,-97955.831470,45838.033857,-219.209665,925.302100,-707.269718
21,2000,58576.580857,-99492.375740,40693.194675,276.741735,-972.592666,697.035748,54738.416725,-97865.740762,42979.028095,-250.779449,938.152125,-689.323910
22,2100,61361.052045,-98989.436858,37879.280350,305.583319,-979.285943,673.969290,57385.734861,-97301.167685,40214.907374,-280.881657,945.172457,-663.056368
23,2200,63700.551966,-98655.085922,34960.161838,332.361308,-984.681891,646.976551,59871.505184,-97052.809916,37206.535036,-307.018270,952.386050,-641.594201
24,2300,66108.230013,-98180.199821,31759.936464,369.164668,-990.126423,619.569666,62087.990445,-96814.139392,34320.624053,-336.764938,956.013429,-618.007722
25,2400,68344.376319,-97298.230998,28920.270783,392.778279,-992.054407,600.591768,64647.022277,-96098.799213,31591.577660,-364.915959,960.934804,-593.795863
26,2500,70793.536361,-96643.852946,25900.929273,427.171341,-993.380903,573.952282,66524.713304,-95241.609126,28545.114422,-392.611926,966.110568,-567.684751
27,2600,72971.933589,-95769.071338,22889.900040,449.094710,-995.192709,546.826096,69300.370107,-94922.601061,25597.051368,-417.517270,968.800898,-546.143462
28,2700,74931.675850,-94820.407463,19719.925491,477.375543,-1000.535637,518.505055,70939.975829,-93872.157300,22579.143724,-448.373508,970.086782,-518.524970
29,2800,76907.823520,-93669.762251,16620.546391,505.103724,-1000.441847,495.403180,73155.452850,-93154.550847,19798.918880,-473.186609,966.578591,-490.742497
30,2900,79017.000532,-92529.368882,13625.140985,532.100099,-1001.797835,463.179096,75377.160950,-91754.872164,16598.246124,-498.785365,970.923404,-466.116794
31,3000,80981.545651,-91366.364022,10402.050529,559.612043,-997.418799,437.262521,77251.312178,-91018.737971,13598.759211,-528.783154,968.683297,-438.974880
32,3100,82698.491242,-90234.357272,7150.166216,584.022762,-994.103735,412.704126,79019.849152,-89610.313454,10705.979476,-552.325056,968.039493,-411.752576
33,3200,84274.068597,-88740.027542,4235.538280,608.584875,-991.037735,382.986917,80980.050834,-88480.725060,7638.280905,-576.541349,965.144880,-387.282151
34,3300,85965.545214,-87166.760619,1203.085807,633.178285,-986.603426,351.765657,82555.044690,-87044.859371,4360.551458,-600.848811,963.311336,-357.134070
35,3400,87587.916328,-85447.924148,-2206.276110,656.066870,-980.618158,322.328785,84110.877604,-85337.285911,1405.182965,-623.094997,952.835149,-328.635308
36,3500,89075.999912,-83981.059441,-5274.279593,683.108529,-976.743838,292.391645,85733.684721,-84033.865092,-1416.818397,-650.339004,951.561615,-296.465531
37,3600,90583.542223,-82322.199364,-8315.653496,707.397678,-962.668389,264.749437,87319.405841,-82462.054596,-4820.111247,-671.577271,944.342375,-267.320120
38,3700,91803.990841,-80353.045514,-11667.241992,724.220528,-957.420469,230.781610,88501.149355,-80649.859479,-7943.641703,-693.104337,934.527193,-239.761960
39,3800,92986.304130,-78432.884858,-14580.381711,748.365892,-950.420445,197.650974,89856.205480,-78705.341565,-11081.590729,-715.699250,925.833314,-207.313370
40,3900,94090.699153,-76187.389397,-17737.196707,767.594489,-937.047817,170.785499,90856.233426,-77071.954558,-14030.050970,-735.285231,917.752732,-180.712266
41,4000,94982.831930,-74292.969472,-20764.769480,788.816649,-926.751154,139.982156,92329.692742,-74952.150319,-16904.202729,-754.159114,906.016324,-148.236191
42,4100,96192.471077,-72075.809460,-23810.521231,808.019336,-915.509031,108.165137,93065.537166,-73091.005578,-20214.817730,-771.526826,895.626894,-118.371512
43,4200,97033.912460,-70108.985618,-26968.752245,828.600015,-901.548464,76.804155,94106.578332,-70909.915868,-22889.607400,-791.252783,879.865196,-87.748369
44,4300,97480.487081,-67734.374145,-30069.281563,842.658166,-888.251202,44.492276,94810.199142,-68828.012691,-26004.094050,-807.660560,870.627609,-62.431462
45,4400,98304.943186,-65368.727123,-33063.161429,859.377254,-873.933508,13.671150,95671.664431,-66761.673692,-28891.062168,-823.618860,852.670483,-30.340957
46,4500,98646.964570,-62894.417443,-35736.219766,873.038678,-856.951277,-16.284017,96197.004510,-64420.821313,-32155.831827,-841.340488,838.289333,-0.606245
47,4600,99451.077838,-60110.247990,-38701.829513,888.992544,-844.583360,-47.669027,96722.977132,-61765.146103,-34599.520156,-859.451130,822.076107,32.033265
48,4700,99437.451886,-58183.962788,-41595.953851,903.575661,-825.122831,-78.652384,97226.419059,-59287.391613,-37666.094551,-868.145075,805.785230,62.002551
49,4800,99705.119911,-55388.997796,-44536.969534,913.565879,-802.802982,-111.583665,97646.681624,-57102.198782,-40545.985984,-883.715452,792.117890,91.053786
50,4900,99933.761130,-52567.661922,-47236.230659,923.948097,-785.500234,-143.441318,97703.242799,-54764.233793,-43113.122502,-894.857503,772.451893,126.692293
51,5000,99980.963820,-50124.278450,-50200.961953,938.578922,-767.519895,-173.902609,97863.305155,-52028.260548,-46149.809755,-907.090617,754.284700,153.304169
52,5100,99892.299087,-47261.530393,-52483.427960,949.001674,-749.189380,-201.951916,97974.879818,-49084.335692,-48452.194719,-917.969905,731.096688,180.557679
53,5200,99818.305785,-44345.589177,-55399.070396,958.825259,-725.635731,-237.398960,97762.487249,-46653.706248,-51474.741717,-924.094192,713.330168,211.136732
54,5300,99414.003208,-41743.893238,-58015.144362,969.250635,-704.749917,-265.288143,97946.103665,-43845.999383,-54023.500848,-932.446150,691.425813,241.051680
55,5400,99466.886499,-38850.125047,-60359.292782,973.982056,-680.492144,-297.915169,97605.379834,-41163.594314,-56296.657453,-945.027934,672.020317,271.080387
56,5500,98660.482798,-35725.006193,-62885.844989,980.386545,-656.041404,-325.097530,97335.158003,-38211.271781,-59297.902366,-947.212100,646.766176,299.362709
57,5600,98209.928525,-32891.556177,-65420.634922,985.565080,-632.211171,-353.330054,96838.366740,-35189.222553,-61248.038025,-957.226680,625.601744,331.539359
58,5700,97645.204858,-29958.677243,-67834.669660,988.345905,-607.388378,-386.196891,96106.013466,-32589.402025,-63920.055628,-960.235668,599.781507,355.721058
59,5800,96704.963604,-26871.271511,-69776.843101,993.122032,-581.600947,-414.194933,95919.215464,-29602.935900,-66173.769450,-966.793486,575.746583,386.575428
60,5900,96048.567561,-23867.582357,-72141.723673,995.367862,-553.647049,-439.665674,95009.743243,-26996.348073,-68452.375436,-969.490640,554.216818,413.057398
61,6000,95262.371839,-20764.843182,-74363.793815,995.526215,-532.868120,-468.284649,94208.019449,-23606.864725,-70728.258128,-969.733705,528.754564,438.495462
62,6100,94220.831541,-17657.023259,-76195.312144,999.424160,-500.018797,-495.741288,93262.941852,-20588.667764,-72773.024835,-968.105574,501.089518,466.528330
63,6200,92999.636721,-14755.239140,-78533.524836,1000.209046,-477.667934,-523.003025,92349.132313,-17682.959294,-74425.028500,-970.957516,477.555588,494.859061
64,6300,91973.573920,-11286.875163,-80303.289825,995.688300,-445.148599,-549.636463,91215.853611,-14675.055729,-76486.411127,-974.392548,449.905640,516.262805
65,6400,90436.722768,-8192.411018,-82247.766395,994.234737,-417.842728,-571.949266,89916.101407,-11630.094879,-78526.361354,-968.077686,421.957818,544.516760
66,6500,88993.285177,-5156.396409,-83914.409409,992.110917,-389.630302,-602.678682,88801.493712,-8439.454015,-80210.400962,-963.684600,395.974697,568.604763
67,6600,87630.053380,-2113.855136,-85495.917070,988.399086,-364.639039,-626.604870,87383.568331,-5454.103585,-81824.049725,-962.644999,366.433624,591.432378
68,6700,86243.100524,1058.048600,-87044.108457,983.022504,-328.563136,-654.364223,85942.567708,-2376.933445,-83671.157414,-957.370112,340.811042,615.288669
69,6800,84186.771898,4181.719165,-88721.545556,976.110511,-299.793656,-674.785931,84518.778980,488.484595,-85041.211549,-951.543274,308.205928,645.483045
70,6900,82561.799860,7218.441429,-90071.971953,969.102667,-273.946765,-699.030314,82834.008052,3885.133927,-86763.500764,-945.447258,279.401221,661.949163
71,7000,81011.607743,10293.679201,-91350.869985,957.609988,-243.180326,-721.318510,81170.621552,6981.709217,-87962.550385,-936.929408,251.594808,684.121938
72,7100,78957.400906,13532.236472,-92466.727542,952.365470,-212.900133,-741.763778,79509.294169,9994.855190,-89422.397719,-926.622467,222.042471,708.803367
73,7200,77115.898130,16837.362445,-93746.739631,941.153042,-180.615476,-762.595352,77643.380933,12881.731318,-90497.023500,-919.991629,192.213989,727.181545
74,7300,74927.593850,19738.870980,-94747.741386,928.932244,-149.363811,-779.385506,75644.680603,16184.163061,-91771.734603,-906.248167,161.998213,747.415353
75,7400,72918.051545,22704.960442,-95721.090979,919.392272,-119.623609,-800.977664,73739.122099,19126.013782,-92768.763761,-899.010951,130.612178,766.925806
76,7500,70738.065518,26184.001395,-96367.361276,902.206521,-87.434548,-819.952753,71636.913761,22041.600512,-93610.607882,-884.499919,100.023493,784.999643
77,7600,68352.321391,28868.693691,-97533.503328,890.718898,-57.325702,-837.584782,69458.389914,25018.535837,-94570.382051,-872.940869,71.757778,798.853164
78,7700,66060.301691,31933.803530,-97882.415028,879.967892,-22.248057,-855.407048,67438.326282,27985.478561,-95115.040173,-861.466937,37.887695,819.063857
79,7800,63654.908914,34778.707159,-98857.278391,861.477514,5.996080,-867.875838,65045.984211,30905.083584,-96018.898315,-846.879344,9.165148,832.531205
80,7900,61271.185455,37656.588952,-99138.316778,846.484179,38.573389,-883.508450,62572.753578,33714.816280,-96633.654078,-830.509805,-22.562354,851.533297
81,8000,58673.301936,40662.352801,-99663.116944,827.844746,72.484247,-898.797536,60471.124164,36707.471028,-97104.428039,-812.551995,-50.465419,863.672445
82,8100,56032.292356,43778.619591,-99885.938432,809.351994,100.597017,-909.656260,58026.539596,39733.580298,-97276.148574,-800.590106,-82.083921,876.159328
83,8200,53451.065228,46550.033135,-99563.674950,791.439359,134.155506,-925.796725,55264.395536,42284.973548,-97493.521390,-778.238403,-110.249622,890.871252
84,8300,50763.553580,49046.185487,-99953.530270,771.202246,164.645157,-937.807481,52828.473694,45067.463661,-97812.914084,-757.656577,-142.837166,900.663640
85,8400,48382.811128,51684.278088,-100007.501689,754.059989,194.937603,-948.396448,50301.076645,47741.672647,-97964.114558,-738.806391,-171.439765,912.160348
86,8500,45492.330483,54516.075430,-99908.092204,731.210816,223.853506,-955.606803,47622.529992,50334.496884,-97983.592670,-717.157438,-200.518879,922.143732
87,8600,42561.870401,56906.369271,-99677.866774,713.346333,254.704349,-963.948942,44661.870093,52969.374948,-97950.573469,-701.479311,-228.724429,931.898869
88,8700,39682.822565,59650.347883,-99403.915826,687.136392,285.736483,-973.106288,42092.897418,55610.044300,-97762.140264,-678.624406,-259.499673,941.285842
89,8800,36869.039891,62236.303926,-98908.581777,662.211378,316.319317,-980.152733,39240.391738,58017.415360,-97337.799692,-655.469951,-288.301617,947.542008
90,8900,33916.002794,64552.147414,-98419.550670,638.300099,347.326546,-985.209879,36529.814295,60594.518260,-97022.388508,-632.708205,-320.463923,956.439341
91,9000,30815.112473,66951.039947,-97826.434465,615.205277,377.286707,-993.940232,33562.786888,62749.769419,-96446.741700,-612.908133,-346.998156,955.384156
92,9100,28150.290801,69403.119975,-97067.126405,593.151309,401.784920,-993.727899,30981.048311,65305.460938,-95943.299103,-586.657399,-377.032706,962.622772
93,9200,24777.421851,71313.778587,-96173.319525,563.790876,430.239747,-994.424979,27758.695611,67780.155206,-95135.181915,-561.219222,-405.705036,965.636277
94,9300,21845.854047,73667.325920,-95633.383170,542.483218,459.757333,-998.299620,24444.124282,69846.160368,-94172.717998,-534.002454,-433.920654,966.377819
95,9400,18849.424076,75754.036006,-94570.888706,512.156847,491.320673,-1004.128825,21786.445692,71766.974492,-93583.459933,-509.425612,-458.219132,969.823673
96,9500,15586.863527,77746.242210,-93351.746634,485.563867,513.583822,-1004.559623,18545.599077,74109.475305,-92775.526319,-482.955395,-486.588137,968.961330
97,9600,12498.262814,79640.573210,-92216.552444,456.376867,545.404308,-1000.118236,15677.265630,75841.626293,-91678.490054,-459.659526,-511.843528,972.200408
98,9700,9429.138833,81689.358610,-91231.609918,430.516664,570.241089,-996.804272,12800.306542,77865.047672,-90541.705574,-434.698284,-539.178240,965.354560
99,9800,6250.629921,83313.305562,-89535.656745,400.589944,589.986291,-995.200247,9425.696820,79459.270404,-89397.152435,-400.988981,-563.131537,965.041758
100,9900,3096.446158,84778.462685,-88090.985748,373.181851,618.529754,-989.041548,6508.277348,81554.106041,-87998.562407,-379.119387,-586.985913,964.084304
101,10000,207.282026,86418.477010,-86498.881017,342.286458,647.171618,-985.668793,3608.615909,83022.613373,-86557.425507,-347.110997,-610.656507,954.927919
102,10100,-3180.498935,88122.986285,-85115.617120,315.545739,666.799477,-975.478991,212.534632,84817.822000,-84789.313156,-319.656552,-633.524156,950.834983
103,10200,-6319.186694,89727.181375,-83222.205442,279.891501,689.988848,-972.748374,-2947.738630,86164.020693,-83317.465964,-288.759786,-654.799553,945.581962
104,10300,-9202.953939,91064.900331,-81460.089171,252.348303,714.470799,-963.337785,-5985.658073,87695.117279,-81668.513936,-259.400562,-678.892919,941.819942
105,10400,-12324.051213,92238.994338,-79553.633221,223.989263,732.389422,-956.924031,-8872.605402,89028.224465,-79868.891751,-227.309153,-702.294752,933.023844
106,10500,-15679.035018,93366.028148,-77798.287004,190.841206,754.632276,-945.890294,-11709.384467,90202.039573,-78330.165327,-199.064411,-722.791841,921.374579
107,10600,-18619.381386,94296.240589,-75605.623524,157.963924,777.341792,-935.551351,-15103.009569,91484.968217,-76539.733630,-172.944952,-741.147710,911.941615
108,10700,-21837.202267,95564.582503,-73519.604433,131.647753,794.440107,-921.913359,-18057.541245,92448.143251,-74468.948420,-142.097107,-758.506677,898.091568
109,10800,-24650.511178,96403.949643,-71635.912794,98.698319,811.452212,-909.949255,-21010.483631,93720.427042,-72383.215212,-113.436823,-777.393095,891.327539
110,10900,-27907.144985,96972.787128,-69276.510968,70.130566,831.487694,-895.455816,-24092.372491,94419.203185,-70228.489512,-83.284592,-795.395329,880.335975
111,11000,-30720.352026,97891.264131,-66996.932287,36.286040,848.662195,-882.574635,-26839.740578,95108.743689,-68106.331090,-50.863931,-815.526373,866.026237
112,11100,-33995.438109,98423.494648,-64691.755990,4.585283,865.801367,-870.469781,-30172.186873,95592.389477,-66048.901597,-16.868056,-831.475613,850.095984
113,11200,-36892.992102,98964.674433,-61976.140583,-27.427033,879.280417,-852.509988,-32828.733136,96226.534202,-63365.081020,12.337942,-844.846679,831.425174
114,11300,-39641.737687,99062.321819,-59585.963489,-56.714445,892.687944,-837.637401,-35754.295277,96868.822912,-61241.463087,41.506220,-861.575089,816.456643
115,11400,-42569.285128,99698.952759,-56877.411607,-89.041148,904.936691,-821.000784,-38531.636090,97214.080056,-58822.558015,67.585555,-870.928394,800.598734
116,11500,-45646.638567,99792.021064,-54392.994743,-120.052808,920.822298,-797.690071,-41273.987660,97669.634952,-56238.682294,102.059282,-884.981185,785.070123
117,11600,-48365.158738,100155.182233,-51758.498144,-153.870691,929.554989,-781.709539,-44109.027029,97848.266715,-53615.234324,132.237247,-897.332371,766.726557
118,11700,-50802.551497,99926.003697,-48992.723719,-184.495728,940.677852,-758.657202,-47009.823826,98219.193832,-51128.498316,160.245365,-910.862204,747.187882
119,11800,-53454.462911,99940.228372,-46301.475405,-215.660243,953.560740,-738.145044,-49404.586925,97974.947547,-48309.451271,191.475292,-918.476718,729.811038
